#H
SOURCE='SYMSPICE'
TITLE='* # file name: E:\samples\SymProbe\dc\input                         '
SUBTITLE='Step ress=100'
SERIALNO='.2   '
TIME='12:19:24' DATE='2/3/2011'
ANALYSIS='DC' TEMPERATURE=' 2.500000E+001' SWEEPVAR='V2'
COMPLEXVALUES='NO' FORMAT='1 VOLTSorAMPS;EFLOAT'
XBEGIN=' 0.000000e+000' XEND=' 5.000000e+000'
NODES='     1'
#N 'i(v2)'

#C     0.00000000e+000           1    4.19436807e-003

#C    0.100000000000           1    4.09498415e-003

#C    0.200000000000           1    3.99561528e-003

#C    0.300000000000           1    3.89626218e-003

#C    0.400000000000           1    3.79692454e-003

#C    0.500000000000           1    3.69754914e-003

#C    0.600000000000           1    3.59550088e-003

#C    0.700000000000           1    3.38920734e-003

#C    0.800000000000           1    2.46390542e-003

#C    0.900000000000           1    9.85735161e-004

#C    1.000000000000           1   -6.02899592e-004

#C    1.100000000000           1   -2.07234552e-003

#C    1.200000000000           1   -2.96872328e-003

#C    1.300000000000           1   -3.09081285e-003

#C    1.400000000000           1   -3.09400555e-003

#C    1.500000000000           1   -3.09407110e-003

#C    1.600000000000           1   -3.09407244e-003

#C    1.700000000000           1   -3.09407247e-003

#C    1.800000000000           1   -3.09407247e-003

#C    1.900000000000           1   -3.09407247e-003

#C    2.000000000000           1   -3.09407247e-003

#C    2.100000000000           1   -3.09407247e-003

#C    2.200000000000           1   -3.09407247e-003

#C    2.300000000000           1   -3.09407247e-003

#C    2.400000000000           1   -3.09407247e-003

#C    2.500000000000           1   -3.09407247e-003

#C    2.600000000000           1   -3.09407247e-003

#C    2.700000000000           1   -3.09407247e-003

#C    2.800000000000           1   -3.09407247e-003

#C    2.900000000000           1   -3.09407247e-003

#C    3.000000000000           1   -3.09407247e-003

#C    3.100000000000           1   -3.09407247e-003

#C    3.200000000000           1   -3.09407247e-003

#C    3.300000000000           1   -3.09407247e-003

#C    3.400000000000           1   -3.09407247e-003

#C    3.500000000000           1   -3.09407247e-003

#C    3.600000000000           1   -3.09407247e-003

#C    3.700000000000           1   -3.09407247e-003

#C    3.800000000000           1   -3.09407247e-003

#C    3.900000000000           1   -3.09407247e-003

#C    4.000000000000           1   -3.09407247e-003

#C    4.100000000000           1   -3.09407247e-003

#C    4.200000000000           1   -3.09407247e-003

#C    4.300000000000           1   -3.09407247e-003

#C    4.400000000000           1   -3.09407247e-003

#C    4.500000000000           1   -3.09407247e-003

#C    4.600000000000           1   -3.09407247e-003

#C    4.700000000000           1   -3.09407248e-003

#C    4.800000000000           1   -3.09407248e-003

#C    4.900000000000           1   -3.09407248e-003

#C    5.000000000000           1   -3.09407248e-003


#;

#H
SOURCE='SYMSPICE'
TITLE='* # file name: E:\samples\SymProbe\dc\input                         '
SUBTITLE='Step ress=1000'
SERIALNO='.2   '
TIME='12:19:24' DATE='2/3/2011'
ANALYSIS='DC' TEMPERATURE=' 2.500000E+001' SWEEPVAR='V2'
COMPLEXVALUES='NO' FORMAT='1 VOLTSorAMPS;EFLOAT'
XBEGIN=' 0.000000e+000' XEND=' 5.000000e+000'
NODES='     1'
#N 'i(v2)'

#C     0.00000000e+000           1    4.19436807e-003

#C    0.100000000000           1    4.09498415e-003

#C    0.200000000000           1    3.99561528e-003

#C    0.300000000000           1    3.89626218e-003

#C    0.400000000000           1    3.79692454e-003

#C    0.500000000000           1    3.69754920e-003

#C    0.600000000000           1    3.59562911e-003

#C    0.700000000000           1    3.44817644e-003

#C    0.800000000000           1    3.21639703e-003

#C    0.900000000000           1    2.95223164e-003

#C    1.000000000000           1    2.67653401e-003

#C    1.100000000000           1    2.39541139e-003

#C    1.200000000000           1    2.11130430e-003

#C    1.300000000000           1    1.82543256e-003

#C    1.400000000000           1    1.53851351e-003

#C    1.500000000000           1    1.25103150e-003

#C    1.600000000000           1    9.63360771e-004

#C    1.700000000000           1    6.75833606e-004

#C    1.800000000000           1    3.88789357e-004

#C    1.900000000000           1    1.02623869e-004

#C    2.000000000000           1   -1.82144656e-004

#C    2.100000000000           1   -4.64757658e-004

#C    2.200000000000           1   -7.43982978e-004

#C    2.300000000000           1   -1.01755195e-003

#C    2.400000000000           1   -1.28052824e-003

#C    2.500000000000           1   -1.51904183e-003

#C    2.600000000000           1   -1.68304671e-003

#C    2.700000000000           1   -1.71587838e-003

#C    2.800000000000           1   -1.71691510e-003

#C    2.900000000000           1   -1.71693654e-003

#C    3.000000000000           1   -1.71693698e-003

#C    3.100000000000           1   -1.71693699e-003

#C    3.200000000000           1   -1.71693699e-003

#C    3.300000000000           1   -1.71693699e-003

#C    3.400000000000           1   -1.71693699e-003

#C    3.500000000000           1   -1.71693699e-003

#C    3.600000000000           1   -1.71693699e-003

#C    3.700000000000           1   -1.71693699e-003

#C    3.800000000000           1   -1.71693699e-003

#C    3.900000000000           1   -1.71693699e-003

#C    4.000000000000           1   -1.71693699e-003

#C    4.100000000000           1   -1.71693699e-003

#C    4.200000000000           1   -1.71693699e-003

#C    4.300000000000           1   -1.71693699e-003

#C    4.400000000000           1   -1.71693699e-003

#C    4.500000000000           1   -1.71693699e-003

#C    4.600000000000           1   -1.71693699e-003

#C    4.700000000000           1   -1.71693699e-003

#C    4.800000000000           1   -1.71693699e-003

#C    4.900000000000           1   -1.71693699e-003

#C    5.000000000000           1   -1.71693699e-003

#;

